        Freq(Hz)	          I(S21)	          Q(S21)	          I(S11)	          Q(S11)
1.036000000e+09	6.280855471e-02	-4.000472627e-01	2.912236861e-02	8.743225213e-04
1.036000900e+09	6.349724764e-02	-4.004110732e-01	2.879122301e-02	1.252250075e-03
1.036001800e+09	6.317438753e-02	-4.005621592e-01	2.902312416e-02	1.241243928e-03
1.036002700e+09	6.319780520e-02	-4.003280831e-01	2.913820517e-02	1.234421519e-03
1.036003600e+09	6.391404735e-02	-3.994458621e-01	2.902818990e-02	1.277152549e-03
1.036004500e+09	6.263251052e-02	-4.000516064e-01	2.863995721e-02	8.076482617e-04
1.036005400e+09	6.288648812e-02	-3.998806874e-01	2.874596393e-02	8.418202536e-04
1.036006300e+09	6.262781569e-02	-4.001930851e-01	2.936210771e-02	9.924223249e-04
1.036007200e+09	6.214896291e-02	-4.005431513e-01	2.896994216e-02	1.013622210e-03
1.036008100e+09	6.238494671e-02	-3.996522899e-01	2.913992304e-02	9.194694550e-04
1.036009000e+09	6.302583045e-02	-4.003556932e-01	2.891510737e-02	9.660701582e-04
1.036009900e+09	6.249245756e-02	-3.998260030e-01	2.873960072e-02	1.256390917e-03
1.036010800e+09	6.212408190e-02	-4.006848334e-01	2.889877590e-02	1.381425810e-03
1.036011700e+09	6.176545315e-02	-4.004286506e-01	2.873193452e-02	1.088729514e-03
1.036012600e+09	6.190545796e-02	-3.996814431e-01	2.885644473e-02	9.839558986e-04
1.036013500e+09	6.226323199e-02	-3.999335247e-01	2.926253905e-02	9.801223893e-04
1.036014400e+09	6.182115049e-02	-4.001952877e-01	2.899736123e-02	8.527184798e-04
1.036015300e+09	6.188429748e-02	-4.002854564e-01	2.872159753e-02	1.052254354e-03
1.036016200e+09	6.195421814e-02	-4.002832119e-01	2.893938992e-02	1.050327545e-03
1.036017100e+09	6.171315110e-02	-4.010270491e-01	2.882127404e-02	6.994796220e-04
1.036018000e+09	6.185951008e-02	-4.008279808e-01	2.914296223e-02	8.845234655e-04
1.036018900e+09	6.086173376e-02	-3.999908339e-01	2.904325694e-02	8.593290133e-04
1.036019800e+09	6.039669463e-02	-4.004574289e-01	2.901646068e-02	1.079055897e-03
1.036020700e+09	6.157898520e-02	-4.003263151e-01	2.877466991e-02	1.172204898e-03
1.036021600e+09	6.157232063e-02	-4.007200969e-01	2.872966080e-02	5.982175993e-04
1.036022500e+09	6.138777963e-02	-4.010656377e-01	2.885400989e-02	1.036554476e-03
1.036023400e+09	6.091970487e-02	-4.006326245e-01	2.874172541e-02	1.062659405e-03
1.036024300e+09	6.025080440e-02	-4.005306393e-01	2.928602907e-02	1.132035521e-03
1.036025200e+09	6.066123463e-02	-4.000267049e-01	2.912172292e-02	9.658799417e-04
1.036026100e+09	6.105428087e-02	-4.005164894e-01	2.895423413e-02	6.443764784e-04
1.036027000e+09	6.041715890e-02	-4.000434691e-01	2.917520201e-02	8.624596265e-04
1.036027900e+09	6.120813965e-02	-4.014355443e-01	2.869971057e-02	1.044497434e-03
1.036028800e+09	6.036608907e-02	-4.008860669e-01	2.916910508e-02	1.039897602e-03
1.036029700e+09	5.993131434e-02	-4.006046180e-01	2.882522259e-02	9.812860518e-04
1.036030600e+09	6.045873121e-02	-4.002223584e-01	2.881988913e-02	7.277524143e-04
1.036031500e+09	6.011047787e-02	-4.007150078e-01	2.903628830e-02	7.236755323e-04
1.036032400e+09	5.951160048e-02	-4.014168369e-01	2.891225422e-02	6.566826601e-04
1.036033300e+09	5.967355538e-02	-4.002024699e-01	2.856430046e-02	6.863236246e-04
1.036034200e+09	5.967470002e-02	-4.004740323e-01	2.847915510e-02	9.408321161e-04
1.036035100e+09	5.929560778e-02	-4.008075538e-01	2.902369330e-02	9.928859851e-04
1.036036000e+09	5.993102416e-02	-4.007500964e-01	2.875611209e-02	7.461504719e-04
1.036036900e+09	5.999479911e-02	-4.007789787e-01	2.901106493e-02	1.108975719e-03
1.036037800e+09	6.009493952e-02	-4.005306288e-01	2.903280289e-02	8.191090951e-04
1.036038700e+09	5.876859562e-02	-4.007257561e-01	2.899743072e-02	7.482854870e-04
1.036039600e+09	5.894296511e-02	-4.011283657e-01	2.904543704e-02	8.157999726e-04
1.036040500e+09	5.849787461e-02	-4.013678897e-01	2.860913662e-02	5.737111955e-04
1.036041400e+09	5.917438157e-02	-4.008562902e-01	2.897869813e-02	8.278437367e-04
1.036042300e+09	5.959910061e-02	-4.008294936e-01	2.893554348e-02	9.135313915e-04
1.036043200e+09	5.891787593e-02	-4.008198656e-01	2.881760813e-02	9.597724656e-04
1.036044100e+09	5.843342532e-02	-4.012362844e-01	2.897943571e-02	9.782382458e-04
1.036045000e+09	5.784838926e-02	-4.010265439e-01	2.875873362e-02	9.410776980e-04
1.036045900e+09	5.800026418e-02	-4.007413655e-01	2.894552511e-02	8.630362622e-04
1.036046800e+09	5.835261510e-02	-4.006103728e-01	2.895261249e-02	7.704570918e-04
1.036047700e+09	5.854451059e-02	-4.008844529e-01	2.904936481e-02	9.226606949e-04
1.036048600e+09	5.771037691e-02	-4.004614079e-01	2.885617450e-02	1.088347702e-03
1.036049500e+09	5.779078673e-02	-4.007793445e-01	2.896354543e-02	8.181252066e-04
1.036050400e+09	5.811786703e-02	-4.018529463e-01	2.875488538e-02	9.564156510e-04
1.036051300e+09	5.798222757e-02	-4.008097420e-01	2.882932923e-02	1.128025072e-03
1.036052200e+09	5.787187647e-02	-4.001541124e-01	2.878291241e-02	9.945632312e-04
1.036053100e+09	5.786976188e-02	-4.011365111e-01	2.871653754e-02	7.984945669e-04
1.036054000e+09	5.745835160e-02	-4.010651860e-01	2.888839406e-02	8.337983747e-04
1.036054900e+09	5.729327215e-02	-4.013694878e-01	2.877310944e-02	6.898524823e-04
1.036055800e+09	5.732463672e-02	-4.010184391e-01	2.876359443e-02	8.538898742e-04
1.036056700e+09	5.665094857e-02	-4.011732233e-01	2.864790707e-02	1.283766485e-03
1.036057600e+09	5.752669290e-02	-4.014526666e-01	2.893564535e-02	1.120591885e-03
1.036058500e+09	5.731635257e-02	-4.006133115e-01	2.906330678e-02	4.949613287e-04
1.036059400e+09	5.679293412e-02	-4.006189856e-01	2.892597591e-02	8.220781427e-04
1.036060300e+09	5.588436109e-02	-4.006523807e-01	2.888993556e-02	7.326489110e-04
1.036061200e+09	5.729009628e-02	-4.007431270e-01	2.897714053e-02	6.285112254e-04
1.036062100e+09	5.640244175e-02	-4.010431846e-01	2.907082412e-02	6.002551882e-04
1.036063000e+09	5.664537122e-02	-4.008935502e-01	2.909820627e-02	5.363082277e-04
1.036063900e+09	5.684982809e-02	-4.008950867e-01	2.897007931e-02	6.971336637e-04
1.036064800e+09	5.622398867e-02	-4.008217864e-01	2.881167835e-02	7.694005084e-04
1.036065700e+09	5.587406250e-02	-4.012450010e-01	2.889276055e-02	6.750660333e-04
1.036066600e+09	5.626280533e-02	-4.010691513e-01	2.877209947e-02	1.021309925e-03
1.036067500e+09	5.680588576e-02	-4.005501001e-01	2.917222972e-02	9.921494736e-04
1.036068400e+09	5.651229332e-02	-4.011545390e-01	2.882032082e-02	7.666286641e-04
1.036069300e+09	5.563999295e-02	-4.011186843e-01	2.875246027e-02	9.297044687e-04
1.036070200e+09	5.644390700e-02	-4.014140126e-01	2.921116080e-02	6.646350711e-04
1.036071100e+09	5.555498699e-02	-4.009497730e-01	2.895640459e-02	6.991910303e-04
1.036072000e+09	5.531999365e-02	-4.011712383e-01	2.883058872e-02	8.916376059e-04
1.036072900e+09	5.491167823e-02	-4.014547803e-01	2.899449699e-02	6.745389863e-04
1.036073800e+09	5.501148634e-02	-4.019420012e-01	2.883887518e-02	6.073610457e-04
1.036074700e+09	5.518342164e-02	-4.014641249e-01	2.906520494e-02	8.886321808e-04
1.036075600e+09	5.579689660e-02	-4.014990341e-01	2.899496701e-02	5.120530921e-04
1.036076500e+09	5.555089033e-02	-4.005597884e-01	2.865814889e-02	9.663692432e-04
1.036077400e+09	5.477428892e-02	-4.016247316e-01	2.881795465e-02	6.782705489e-04
1.036078300e+09	5.537709869e-02	-4.009003072e-01	2.925155492e-02	9.527534818e-04
1.036079200e+09	5.483712875e-02	-4.013067421e-01	2.885765808e-02	7.367837473e-04
1.036080100e+09	5.560438229e-02	-4.016840208e-01	2.900352638e-02	8.742067007e-04
1.036081000e+09	5.472502357e-02	-4.018145520e-01	2.889275158e-02	8.891423235e-04
1.036081900e+09	5.488191855e-02	-4.004087913e-01	2.922724161e-02	8.149146693e-04
1.036082800e+09	5.463110333e-02	-4.011954835e-01	2.905199539e-02	8.221184675e-04
1.036083700e+09	5.388888681e-02	-4.009131339e-01	2.890773141e-02	9.295548485e-04
1.036084600e+09	5.409040203e-02	-4.009306545e-01	2.863141657e-02	9.473096186e-04
1.036085500e+09	5.447551547e-02	-4.016061010e-01	2.882185846e-02	5.571896104e-04
1.036086400e+09	5.404371184e-02	-4.015775255e-01	2.876755687e-02	8.126370067e-04
1.036087300e+09	5.419013226e-02	-4.016084615e-01	2.883892042e-02	9.118630329e-04
1.036088200e+09	5.349674151e-02	-4.020277781e-01	2.873398577e-02	8.136198913e-04
1.036089100e+09	5.429707134e-02	-4.012925203e-01	2.881611339e-02	6.322710900e-04
1.036090000e+09	5.427134432e-02	-4.015697594e-01	2.877374078e-02	9.880702005e-04
1.036090900e+09	5.337296404e-02	-4.010155835e-01	2.879190261e-02	8.716796427e-04
1.036091800e+09	5.402457365e-02	-4.021030047e-01	2.893076938e-02	7.970733192e-04
1.036092700e+09	5.234736132e-02	-4.020588034e-01	2.885483713e-02	7.820208058e-04
1.036093600e+09	5.277654712e-02	-4.009561927e-01	2.884867642e-02	8.311998379e-04
1.036094500e+09	5.289354862e-02	-4.016676714e-01	2.869401967e-02	1.058660410e-03
1.036095400e+09	5.329417136e-02	-4.015406459e-01	2.874054563e-02	8.818941129e-04
1.036096300e+09	5.281662111e-02	-4.018339727e-01	2.897647425e-02	8.521633768e-04
1.036097200e+09	5.227596816e-02	-4.015559945e-01	2.905100681e-02	6.351846551e-04
1.036098100e+09	5.260136001e-02	-4.014982573e-01	2.904314924e-02	6.323208883e-04
1.036099000e+09	5.308025606e-02	-4.011436904e-01	2.913732469e-02	6.317923680e-04
1.036099900e+09	5.265663120e-02	-4.023531464e-01	2.896202583e-02	4.894183758e-04
1.036100800e+09	5.193999437e-02	-4.017788357e-01	2.900560372e-02	6.807993990e-04
1.036101700e+09	5.246447074e-02	-4.021692089e-01	2.864626306e-02	6.561805591e-04
1.036102600e+09	5.258571629e-02	-4.026118113e-01	2.890899251e-02	8.214075664e-04
1.036103500e+09	5.258597073e-02	-4.014423420e-01	2.864915558e-02	6.707050879e-04
1.036104400e+09	5.189689687e-02	-4.015466536e-01	2.875064458e-02	8.043230843e-04
1.036105300e+09	5.143220222e-02	-4.017690770e-01	2.911979076e-02	5.096171908e-04
1.036106200e+09	5.193970878e-02	-4.019702774e-01	2.863076265e-02	8.344020184e-04
1.036107100e+09	5.117598557e-02	-4.020646443e-01	2.877995189e-02	7.043620352e-04
1.036108000e+09	5.146388319e-02	-4.013732729e-01	2.893832366e-02	8.247543579e-04
1.036108900e+09	5.167499065e-02	-4.020898942e-01	2.887833309e-02	7.637641436e-04
1.036109800e+09	5.155292378e-02	-4.022370990e-01	2.868360795e-02	7.199047662e-04
1.036110700e+09	5.093412185e-02	-4.018209260e-01	2.914607397e-02	7.336598081e-04
1.036111600e+09	5.115625171e-02	-4.022408135e-01	2.892287444e-02	4.525312366e-04
1.036112500e+09	5.117451093e-02	-4.021710273e-01	2.899972693e-02	6.495065908e-04
1.036113400e+09	5.066043753e-02	-4.018421237e-01	2.840923667e-02	5.594341455e-04
1.036114300e+09	5.071605662e-02	-4.018769933e-01	2.903100117e-02	7.596734406e-04
1.036115200e+09	5.076510633e-02	-4.016378320e-01	2.876831308e-02	7.692550579e-04
1.036116100e+09	5.073448547e-02	-4.016762710e-01	2.859676390e-02	8.914098539e-04
1.036117000e+09	5.117128686e-02	-4.020033126e-01	2.886827820e-02	6.490959446e-04
1.036117900e+09	5.049537770e-02	-4.017659219e-01	2.895140595e-02	4.393565408e-04
1.036118800e+09	5.088616348e-02	-4.022771896e-01	2.874765704e-02	8.867163376e-04
1.036119700e+09	5.078906964e-02	-4.017522508e-01	2.869838571e-02	7.528692951e-04
1.036120600e+09	4.958227447e-02	-4.015836535e-01	2.884207511e-02	6.930941099e-04
1.036121500e+09	4.936336178e-02	-4.014515289e-01	2.894627470e-02	8.882835693e-04
1.036122400e+09	5.043980819e-02	-4.018654664e-01	2.879271700e-02	7.696567114e-04
1.036123300e+09	5.016893861e-02	-4.021348814e-01	2.914865439e-02	7.319566000e-04
1.036124200e+09	4.945167560e-02	-4.018386384e-01	2.875997833e-02	8.289127863e-04
1.036125100e+09	5.059131422e-02	-4.027460371e-01	2.865130030e-02	5.524424336e-04
1.036126000e+09	4.972202457e-02	-4.024977113e-01	2.910749612e-02	6.180063456e-04
1.036126900e+09	4.956256734e-02	-4.023527782e-01	2.857828834e-02	9.707514229e-04
1.036127800e+09	4.958554625e-02	-4.032813227e-01	2.885256035e-02	8.305897885e-04
1.036128700e+09	4.869729638e-02	-4.028861884e-01	2.915666775e-02	5.295907658e-04
1.036129600e+09	4.916709809e-02	-4.018433334e-01	2.910129851e-02	8.832698895e-04
1.036130500e+09	4.943234474e-02	-4.015723590e-01	2.884559896e-02	7.763797544e-04
1.036131400e+09	4.931828158e-02	-4.015311449e-01	2.940388304e-02	6.238347868e-04
1.036132300e+09	4.864977943e-02	-4.023932526e-01	2.852642366e-02	5.593792472e-04
1.036133200e+09	4.863758292e-02	-4.019622360e-01	2.879607552e-02	5.552330014e-04
1.036134100e+09	4.862737215e-02	-4.030792921e-01	2.877792911e-02	5.468681122e-04
1.036135000e+09	4.878904534e-02	-4.023701126e-01	2.876162161e-02	4.993578446e-04
1.036135900e+09	4.861242411e-02	-4.021862706e-01	2.922291077e-02	9.181098972e-04
1.036136800e+09	4.899070055e-02	-4.020087906e-01	2.866515621e-02	5.953687381e-04
1.036137700e+09	4.876122104e-02	-4.023205296e-01	2.906960694e-02	8.334188613e-04
1.036138600e+09	4.838182434e-02	-4.020082696e-01	2.892097416e-02	8.090740802e-04
1.036139500e+09	4.789125934e-02	-4.027849776e-01	2.925417235e-02	6.251319650e-04
1.036140400e+09	4.815486492e-02	-4.023014355e-01	2.887364760e-02	7.509945503e-04
1.036141300e+09	4.795203671e-02	-4.021622945e-01	2.901671661e-02	7.770820843e-04
1.036142200e+09	4.800917210e-02	-4.027686557e-01	2.890306252e-02	5.978906209e-04
1.036143100e+09	4.814509983e-02	-4.020577006e-01	2.905927194e-02	6.808759178e-04
1.036144000e+09	4.807570986e-02	-4.018988479e-01	2.883136949e-02	4.051760587e-04
1.036144900e+09	4.761145383e-02	-4.030592048e-01	2.890372720e-02	8.335414170e-04
1.036145800e+09	4.700398896e-02	-4.030570572e-01	2.872042791e-02	7.774746986e-04
1.036146700e+09	4.734974252e-02	-4.026486547e-01	2.921049609e-02	8.913090560e-04
1.036147600e+09	4.687497137e-02	-4.022758492e-01	2.867304788e-02	9.347931503e-04
1.036148500e+09	4.723936173e-02	-4.035404325e-01	2.904138850e-02	6.695985741e-04
1.036149400e+09	4.767876338e-02	-4.021855687e-01	2.917674637e-02	4.797636332e-04
1.036150300e+09	4.619867705e-02	-4.025567991e-01	2.889029899e-02	9.266197622e-04
1.036151200e+09	4.653042235e-02	-4.017420416e-01	2.864342690e-02	5.303760360e-04
1.036152100e+09	4.655067916e-02	-4.023162721e-01	2.886307834e-02	6.220518610e-04
1.036153000e+09	4.661164954e-02	-4.021362593e-01	2.915802295e-02	1.672197181e-04
1.036153900e+09	4.625821559e-02	-4.024931246e-01	2.883090198e-02	9.828003026e-04
1.036154800e+09	4.667643773e-02	-4.020481571e-01	2.872476434e-02	6.964447833e-04
1.036155700e+09	4.570949255e-02	-4.025571384e-01	2.882288768e-02	9.450775209e-04
1.036156600e+09	4.686082885e-02	-4.025280389e-01	2.857289611e-02	4.836580806e-04
1.036157500e+09	4.545793659e-02	-4.023341314e-01	2.889924858e-02	3.804496660e-04
1.036158400e+09	4.657126971e-02	-4.025220608e-01	2.895654801e-02	6.084414547e-04
1.036159300e+09	4.580414278e-02	-4.030983236e-01	2.907851360e-02	8.617493740e-04
1.036160200e+09	4.605067444e-02	-4.018001993e-01	2.887672311e-02	9.167310004e-04
1.036161100e+09	4.548376871e-02	-4.019366903e-01	2.868993581e-02	4.754189902e-04
1.036162000e+09	4.546464540e-02	-4.023453376e-01	2.904255451e-02	7.599989774e-04
1.036162900e+09	4.507324241e-02	-4.024840878e-01	2.891459148e-02	3.456996343e-04
1.036163800e+09	4.564472301e-02	-4.025645988e-01	2.895613011e-02	6.268288260e-04
1.036164700e+09	4.561719857e-02	-4.023052563e-01	2.883836593e-02	5.644591754e-04
1.036165600e+09	4.505925638e-02	-4.012129244e-01	2.910552338e-02	6.716686954e-04
1.036166500e+09	4.513917982e-02	-4.024155382e-01	2.876172510e-02	5.956301538e-04
1.036167400e+09	4.456658820e-02	-4.033155271e-01	2.890006390e-02	3.260119109e-04
1.036168300e+09	4.479967544e-02	-4.028864573e-01	2.896062982e-02	4.371970459e-04
1.036169200e+09	4.454522060e-02	-4.029469056e-01	2.881562300e-02	8.630162056e-04
1.036170100e+09	4.424684771e-02	-4.028702760e-01	2.878077692e-02	5.400738737e-04
1.036171000e+09	4.420032964e-02	-4.024444214e-01	2.881561215e-02	8.410359779e-04
1.036171900e+09	4.465428999e-02	-4.025739220e-01	2.917839831e-02	7.624883379e-04
1.036172800e+09	4.478488045e-02	-4.030859130e-01	2.877627410e-02	6.529862357e-04
1.036173700e+09	4.380443145e-02	-4.026846309e-01	2.906145936e-02	3.352528409e-04
1.036174600e+09	4.413716182e-02	-4.029057084e-01	2.861090139e-02	5.330517907e-04
1.036175500e+09	4.448312993e-02	-4.027372159e-01	2.896444908e-02	8.894436083e-04
1.036176400e+09	4.355100472e-02	-4.022757609e-01	2.912088690e-02	8.085643441e-04
1.036177300e+09	4.386057266e-02	-4.028430624e-01	2.886764479e-02	5.424521915e-04
1.036178200e+09	4.424034640e-02	-4.031088634e-01	2.895296041e-02	5.001334056e-04
1.036179100e+09	4.349536312e-02	-4.023827825e-01	2.899659375e-02	5.637946866e-04
1.036180000e+09	4.377483154e-02	-4.023055630e-01	2.862934280e-02	6.598932598e-04
1.036180900e+09	4.364771554e-02	-4.030592368e-01	2.882739748e-02	5.629064955e-04
1.036181800e+09	4.361977574e-02	-4.033085640e-01	2.835627727e-02	8.016861656e-04
1.036182700e+09	4.344053717e-02	-4.028244299e-01	2.906413227e-02	7.077155390e-04
1.036183600e+09	4.290184275e-02	-4.028762442e-01	2.874088959e-02	5.227086843e-04
1.036184500e+09	4.286716895e-02	-4.025983545e-01	2.885523517e-02	5.733894496e-04
1.036185400e+09	4.266558007e-02	-4.020373989e-01	2.891770329e-02	5.901013916e-04
1.036186300e+09	4.298072036e-02	-4.021469801e-01	2.892423056e-02	7.601482915e-04
1.036187200e+09	4.320992869e-02	-4.037696336e-01	2.896774968e-02	6.298320733e-04
1.036188100e+09	4.270225542e-02	-4.025898527e-01	2.882015111e-02	4.784283030e-04
1.036189000e+09	4.257485744e-02	-4.022711117e-01	2.879635734e-02	5.249581379e-04
1.036189900e+09	4.290939682e-02	-4.024871107e-01	2.879397901e-02	6.879361570e-04
1.036190800e+09	4.278632168e-02	-4.022889496e-01	2.869832065e-02	5.911892076e-04
1.036191700e+09	4.220882553e-02	-4.028092442e-01	2.903874929e-02	5.531264664e-04
1.036192600e+09	4.212297212e-02	-4.033796463e-01	2.894794842e-02	5.960217098e-04
1.036193500e+09	4.178472053e-02	-4.022118485e-01	2.876969403e-02	8.205134401e-04
1.036194400e+09	4.155376323e-02	-4.032792256e-01	2.883893952e-02	5.781608685e-04
1.036195300e+09	4.256254378e-02	-4.026198875e-01	2.860472351e-02	5.608100585e-04
1.036196200e+09	4.198688750e-02	-4.030438810e-01	2.874979932e-02	2.713175243e-04
1.036197100e+09	4.186048078e-02	-4.031194311e-01	2.883038481e-02	6.478315847e-04
1.036198000e+09	4.187221541e-02	-4.033600199e-01	2.884391805e-02	6.624382270e-04
1.036198900e+09	4.189720967e-02	-4.026263118e-01	2.863295250e-02	7.018603199e-04
1.036199800e+09	4.140245620e-02	-4.029002170e-01	2.896234282e-02	6.090099887e-04
1.036200700e+09	4.143445726e-02	-4.032043432e-01	2.895775195e-02	3.913434769e-04
1.036201600e+09	4.124927752e-02	-4.029222454e-01	2.917556496e-02	4.760022584e-04
1.036202500e+09	4.096780092e-02	-4.028289634e-01	2.922644773e-02	4.272593726e-04
1.036203400e+09	4.086473662e-02	-4.028706975e-01	2.895539459e-02	2.560429320e-04
1.036204300e+09	4.088489791e-02	-4.028531859e-01	2.910764646e-02	2.491197210e-04
1.036205200e+09	4.146639552e-02	-4.030644386e-01	2.896816279e-02	7.826993545e-04
1.036206100e+09	4.083245518e-02	-4.029371039e-01	2.882899569e-02	6.815704578e-04
1.036207000e+09	4.088148362e-02	-4.036106699e-01	2.858818249e-02	6.516813086e-04
1.036207900e+09	4.074236936e-02	-4.030857420e-01	2.870306373e-02	3.646668879e-04
1.036208800e+09	4.062465572e-02	-4.030535691e-01	2.880190651e-02	5.105539227e-04
1.036209700e+09	4.055766470e-02	-4.024752378e-01	2.884119840e-02	9.082203231e-04
1.036210600e+09	4.044884255e-02	-4.032674479e-01	2.897773779e-02	5.289168882e-04
1.036211500e+09	4.065564506e-02	-4.037991321e-01	2.875440140e-02	4.444026216e-04
1.036212400e+09	3.921636779e-02	-4.028336443e-01	2.879564713e-02	3.955326545e-04
1.036213300e+09	3.987620002e-02	-4.026648362e-01	2.884547234e-02	8.355198094e-04
1.036214200e+09	4.035230948e-02	-4.035328169e-01	2.883263253e-02	4.039684448e-04
1.036215100e+09	3.944990098e-02	-4.034035535e-01	2.883851567e-02	3.248533586e-04
1.036216000e+09	3.943835499e-02	-4.031959088e-01	2.891990561e-02	4.301518789e-04
1.036216900e+09	3.946514260e-02	-4.031702755e-01	2.897633824e-02	9.718221116e-05
1.036217800e+09	3.919904421e-02	-4.034386264e-01	2.882994042e-02	3.882682107e-04
1.036218700e+09	3.906921153e-02	-4.027172951e-01	2.921766247e-02	6.787698617e-04
1.036219600e+09	3.931062128e-02	-4.031900639e-01	2.901078232e-02	6.775082304e-04
