        Freq(Hz)	          I(S21)	          Q(S21)	          I(S11)	          Q(S11)
1.036000000e+09	6.361278492e-02	-3.999112618e-01	2.904671245e-02	8.244978622e-04
1.036000900e+09	6.352028066e-02	-3.994143479e-01	2.935201400e-02	1.302641166e-03
1.036001800e+09	6.299348626e-02	-3.996852610e-01	2.914022207e-02	8.244769663e-04
1.036002700e+09	6.271296706e-02	-4.002751006e-01	2.879978917e-02	7.677411376e-04
1.036003600e+09	6.341854820e-02	-3.993965610e-01	2.885465963e-02	8.596702588e-04
1.036004500e+09	6.210189570e-02	-3.989125548e-01	2.903778406e-02	1.245374604e-03
1.036005400e+09	6.318121875e-02	-4.004839748e-01	2.847879412e-02	1.020555421e-03
1.036006300e+09	6.402340829e-02	-3.997437482e-01	2.858092953e-02	1.219967952e-03
1.036007200e+09	6.304179016e-02	-4.004048491e-01	2.907108492e-02	1.170743440e-03
1.036008100e+09	6.258167234e-02	-3.997869768e-01	2.835787841e-02	1.419263946e-03
1.036009000e+09	6.290655406e-02	-4.012431442e-01	2.871139187e-02	1.512382943e-03
1.036009900e+09	6.381879137e-02	-4.001040006e-01	2.858553587e-02	6.515344196e-04
1.036010800e+09	6.287186307e-02	-3.997673687e-01	2.953181476e-02	9.724088485e-04
1.036011700e+09	6.234552799e-02	-4.002361736e-01	2.879962422e-02	7.300842555e-04
1.036012600e+09	6.204757054e-02	-4.004166032e-01	2.913278021e-02	1.375841801e-03
1.036013500e+09	6.283369137e-02	-3.996794574e-01	2.828755605e-02	5.119582931e-04
1.036014400e+09	6.189107034e-02	-4.007227474e-01	2.843886446e-02	1.261679091e-03
1.036015300e+09	6.238278677e-02	-4.006698780e-01	2.863154229e-02	8.272422380e-04
1.036016200e+09	6.192269656e-02	-3.995066964e-01	2.951076669e-02	9.752037131e-04
1.036017100e+09	6.152577477e-02	-3.990294251e-01	2.899456228e-02	7.673391903e-04
1.036018000e+09	6.231218555e-02	-4.010973685e-01	2.880083819e-02	3.446682651e-04
1.036018900e+09	6.121477698e-02	-4.005694219e-01	2.916834768e-02	1.906705633e-03
1.036019800e+09	6.083258910e-02	-4.010675088e-01	2.929543958e-02	4.167764788e-04
1.036020700e+09	6.164277672e-02	-4.012000759e-01	2.860201814e-02	7.097585953e-04
1.036021600e+09	6.192610238e-02	-4.007069528e-01	2.891130225e-02	1.397708407e-03
1.036022500e+09	6.043999343e-02	-4.012915238e-01	2.884133479e-02	3.888421054e-04
1.036023400e+09	6.027022290e-02	-4.009649792e-01	2.864750945e-02	8.357548391e-04
1.036024300e+09	6.153497252e-02	-3.999314484e-01	2.873845106e-02	9.309046643e-04
1.036025200e+09	5.930100094e-02	-4.000193345e-01	2.856142425e-02	4.880189599e-04
1.036026100e+09	6.208231427e-02	-3.999896715e-01	2.934560371e-02	4.878401302e-04
1.036027000e+09	6.143854920e-02	-4.004542170e-01	2.930731768e-02	1.111673329e-03
1.036027900e+09	6.042672591e-02	-3.993427437e-01	2.920393131e-02	9.791520136e-04
1.036028800e+09	6.051511457e-02	-4.011097604e-01	2.889914857e-02	3.824099531e-04
1.036029700e+09	5.978829459e-02	-4.011155244e-01	2.872769724e-02	5.613632993e-04
1.036030600e+09	6.068695926e-02	-4.006740635e-01	2.891159413e-02	9.101348666e-04
1.036031500e+09	6.071681153e-02	-4.008504031e-01	2.932550625e-02	7.512180041e-04
1.036032400e+09	5.971259253e-02	-4.010520638e-01	2.885210999e-02	5.045221545e-04
1.036033300e+09	5.994317235e-02	-3.995751376e-01	2.865675211e-02	5.382880258e-04
1.036034200e+09	6.094256240e-02	-4.012631701e-01	2.860563902e-02	8.961603226e-04
1.036035100e+09	5.967919830e-02	-4.006887123e-01	2.912722150e-02	6.500560646e-04
1.036036000e+09	5.949940407e-02	-4.001936672e-01	2.904931308e-02	8.911878908e-04
1.036036900e+09	5.914084977e-02	-4.006535581e-01	2.903558638e-02	1.077676477e-03
1.036037800e+09	6.061101677e-02	-4.001907301e-01	2.882522272e-02	7.167956427e-04
1.036038700e+09	6.097724940e-02	-4.011560337e-01	2.881024328e-02	1.018621911e-03
1.036039600e+09	5.929665770e-02	-4.007124815e-01	2.877549092e-02	6.846374478e-04
1.036040500e+09	5.975842221e-02	-4.005248560e-01	2.882370592e-02	5.786163107e-04
1.036041400e+09	6.013661252e-02	-3.997963253e-01	2.880543937e-02	7.503287108e-04
1.036042300e+09	5.892554571e-02	-4.006582225e-01	2.909011629e-02	1.234778286e-03
1.036043200e+09	5.875638881e-02	-4.014495758e-01	2.906606756e-02	1.042094350e-03
1.036044100e+09	5.899698661e-02	-4.007126962e-01	2.943698646e-02	7.459992898e-04
1.036045000e+09	5.821603940e-02	-4.009726547e-01	2.871046125e-02	1.263801766e-03
1.036045900e+09	6.001971580e-02	-4.012480058e-01	2.907275945e-02	3.595105516e-04
1.036046800e+09	5.979824274e-02	-4.014339983e-01	2.888438400e-02	1.236579551e-03
1.036047700e+09	5.837311986e-02	-4.011264669e-01	2.897691762e-02	7.006257916e-04
1.036048600e+09	5.876645645e-02	-4.003069621e-01	2.900960567e-02	5.510202429e-04
1.036049500e+09	5.785776898e-02	-4.018528154e-01	2.835125420e-02	1.163771779e-03
1.036050400e+09	5.849760841e-02	-4.007333923e-01	2.849080776e-02	9.827002567e-04
1.036051300e+09	5.978674970e-02	-4.013851099e-01	2.878658714e-02	5.680133129e-04
1.036052200e+09	5.721106154e-02	-4.018792416e-01	2.953151370e-02	8.431087356e-04
1.036053100e+09	5.747503495e-02	-4.001874665e-01	2.935805463e-02	5.492198819e-04
1.036054000e+09	5.854250529e-02	-4.008924440e-01	2.861158577e-02	1.099165403e-03
1.036054900e+09	5.871504375e-02	-4.008969814e-01	2.905306558e-02	6.287666894e-04
1.036055800e+09	5.843872379e-02	-4.004293580e-01	2.843556013e-02	7.369043134e-04
1.036056700e+09	5.757749686e-02	-4.008169388e-01	2.884417560e-02	8.884612369e-04
1.036057600e+09	5.693599633e-02	-4.010872629e-01	2.880144504e-02	1.259108101e-03
1.036058500e+09	5.788234765e-02	-4.014999609e-01	2.872809436e-02	1.038486494e-03
1.036059400e+09	5.765970493e-02	-4.008636458e-01	2.886208541e-02	8.240706260e-04
1.036060300e+09	5.638630818e-02	-4.009428831e-01	2.944383962e-02	1.397859537e-03
1.036061200e+09	5.734242158e-02	-4.006475045e-01	2.886622464e-02	6.357998261e-04
1.036062100e+09	5.778152769e-02	-4.017417198e-01	2.927836503e-02	6.267933661e-04
1.036063000e+09	5.587407247e-02	-3.999963097e-01	2.916861442e-02	9.932405552e-04
1.036063900e+09	5.668209056e-02	-4.014975673e-01	2.822808723e-02	8.064036908e-04
1.036064800e+09	5.662220906e-02	-3.999424027e-01	2.896856270e-02	1.123718709e-03
1.036065700e+09	5.769667344e-02	-4.004862767e-01	2.930393243e-02	5.437714066e-04
1.036066600e+09	5.679345592e-02	-4.011095653e-01	2.862024594e-02	8.659604252e-04
1.036067500e+09	5.671705879e-02	-4.009053415e-01	2.873189864e-02	2.849807343e-04
1.036068400e+09	5.628064177e-02	-4.009273354e-01	2.889652856e-02	3.704603803e-04
1.036069300e+09	5.635574903e-02	-4.019780355e-01	2.881970597e-02	5.259128406e-04
1.036070200e+09	5.678799214e-02	-4.011520033e-01	2.918343307e-02	4.985511739e-04
1.036071100e+09	5.549304631e-02	-4.014417862e-01	2.856094792e-02	5.490483563e-04
1.036072000e+09	5.542528241e-02	-4.015087564e-01	2.913742909e-02	8.385375097e-04
1.036072900e+09	5.496232481e-02	-4.020611949e-01	2.914256675e-02	3.233185797e-04
1.036073800e+09	5.630993591e-02	-4.020955547e-01	2.912994310e-02	8.639498622e-04
1.036074700e+09	5.558725093e-02	-4.021323423e-01	2.892450852e-02	1.252078926e-03
1.036075600e+09	5.537007879e-02	-4.014384036e-01	2.861946168e-02	4.399094752e-04
1.036076500e+09	5.584289629e-02	-4.009154726e-01	2.885456726e-02	6.853651766e-04
1.036077400e+09	5.499550046e-02	-4.011716497e-01	2.867590442e-02	6.300119790e-04
1.036078300e+09	5.465730414e-02	-4.016861554e-01	2.839040370e-02	6.832370544e-04
1.036079200e+09	5.516483519e-02	-4.008976022e-01	2.931221230e-02	9.154134860e-04
1.036080100e+09	5.527580710e-02	-4.024245288e-01	2.831220690e-02	7.984757320e-04
1.036081000e+09	5.551286053e-02	-4.001010989e-01	2.872204210e-02	6.883230873e-04
1.036081900e+09	5.564517476e-02	-3.999156041e-01	2.892955761e-02	6.677717952e-04
1.036082800e+09	5.557723675e-02	-4.022509045e-01	2.894501542e-02	7.043810776e-04
1.036083700e+09	5.398040716e-02	-4.026297202e-01	2.912307985e-02	7.922639621e-04
1.036084600e+09	5.310152778e-02	-4.011701830e-01	2.945918837e-02	9.151328288e-04
1.036085500e+09	5.385712876e-02	-4.009425098e-01	2.914359110e-02	5.070642456e-04
1.036086400e+09	5.396458077e-02	-4.021676562e-01	2.919619016e-02	8.816328107e-04
1.036087300e+09	5.383905301e-02	-4.017370118e-01	2.870605339e-02	6.433143459e-04
1.036088200e+09	5.512899477e-02	-4.016117006e-01	2.953032714e-02	6.133761376e-04
1.036089100e+09	5.363473903e-02	-4.015796437e-01	2.906979630e-02	5.714620718e-04
1.036090000e+09	5.495345306e-02	-4.008008024e-01	2.912426852e-02	9.562177527e-04
1.036090900e+09	5.326239404e-02	-4.014813597e-01	2.867521965e-02	1.343900646e-03
1.036091800e+09	5.333895499e-02	-4.015565062e-01	2.913233855e-02	4.213192289e-04
1.036092700e+09	5.479512397e-02	-4.018436046e-01	2.897235989e-02	1.951056833e-04
1.036093600e+09	5.374964282e-02	-4.020720707e-01	2.848493696e-02	5.689910172e-04
1.036094500e+09	5.384775977e-02	-4.025307904e-01	2.872838289e-02	4.880306678e-04
1.036095400e+09	5.428619114e-02	-4.013687534e-01	2.860937861e-02	9.286483888e-04
1.036096300e+09	5.306732158e-02	-4.030671956e-01	2.868128721e-02	1.017922125e-03
1.036097200e+09	5.239485181e-02	-4.025578089e-01	2.827975244e-02	7.105972806e-04
1.036098100e+09	5.331854370e-02	-4.016261817e-01	2.876920001e-02	4.799449633e-04
1.036099000e+09	5.272582062e-02	-4.006195302e-01	2.831025622e-02	9.312002549e-04
1.036099900e+09	5.398201715e-02	-4.021928314e-01	2.910943852e-02	1.192643948e-03
1.036100800e+09	5.312800067e-02	-4.032111348e-01	2.890857847e-02	7.527597802e-04
1.036101700e+09	5.300957624e-02	-4.020992732e-01	2.907749357e-02	7.698408568e-04
1.036102600e+09	5.178629309e-02	-4.009205521e-01	2.824020718e-02	8.797573560e-04
1.036103500e+09	5.234708593e-02	-4.014131061e-01	2.894514788e-02	6.821809495e-04
1.036104400e+09	5.131617108e-02	-4.010555562e-01	2.901558472e-02	9.502382686e-04
1.036105300e+09	5.178042221e-02	-4.011043120e-01	2.863746972e-02	2.419502279e-04
1.036106200e+09	5.207710353e-02	-4.003983302e-01	2.896547708e-02	5.848999397e-04
1.036107100e+09	5.117257313e-02	-4.011587555e-01	2.831518586e-02	1.252546053e-03
1.036108000e+09	5.260424987e-02	-4.029799104e-01	2.910415845e-02	7.173226746e-04
1.036108900e+09	5.170268975e-02	-4.010374381e-01	2.884278877e-02	5.760665995e-04
1.036109800e+09	5.049827845e-02	-4.017781881e-01	2.871812961e-02	9.234322794e-04
1.036110700e+09	5.106249374e-02	-4.027112528e-01	2.930306534e-02	1.009174273e-03
1.036111600e+09	5.077714529e-02	-4.011281254e-01	2.907108292e-02	6.518002006e-04
1.036112500e+09	5.266209059e-02	-4.012436851e-01	2.908161753e-02	5.449890041e-04
1.036113400e+09	5.092468267e-02	-4.024730905e-01	2.870894978e-02	7.374305418e-04
1.036114300e+09	5.029096261e-02	-4.023317461e-01	2.871930347e-02	4.149691999e-04
1.036115200e+09	5.196315923e-02	-4.020371209e-01	2.902726995e-02	6.938664345e-04
1.036116100e+09	5.014663754e-02	-4.023735978e-01	2.910081223e-02	8.035718113e-05
1.036117000e+09	5.044717242e-02	-4.010777732e-01	2.925281238e-02	8.511066134e-05
1.036117900e+09	5.073991450e-02	-4.024835493e-01	2.860843782e-02	7.340825311e-04
1.036118800e+09	5.034895272e-02	-4.017849560e-01	2.875445833e-02	1.317027689e-03
1.036119700e+09	5.097362867e-02	-4.017065655e-01	2.899513483e-02	1.199775400e-03
1.036120600e+09	4.992902571e-02	-4.006188746e-01	2.876449456e-02	5.893450794e-04
1.036121500e+09	5.053075831e-02	-4.017904476e-01	2.880425768e-02	1.183028806e-03
1.036122400e+09	4.915586871e-02	-4.023820407e-01	2.909466171e-02	5.326075814e-04
1.036123300e+09	5.011135923e-02	-4.029910351e-01	2.857333230e-02	2.976818028e-04
1.036124200e+09	4.971865582e-02	-4.024378533e-01	2.868673756e-02	4.822976598e-04
1.036125100e+09	5.059922112e-02	-4.026089145e-01	2.871861479e-02	7.434390527e-04
1.036126000e+09	4.978492451e-02	-4.021091196e-01	2.881677690e-02	6.093617056e-04
1.036126900e+09	4.992333137e-02	-4.022305651e-01	2.955022556e-02	1.035487855e-04
1.036127800e+09	5.163822675e-02	-4.005932348e-01	2.886187657e-02	5.886483475e-04
1.036128700e+09	5.085521170e-02	-4.020314226e-01	2.898672339e-02	5.512067670e-04
1.036129600e+09	5.110060956e-02	-4.023241067e-01	2.797013547e-02	7.145848604e-04
1.036130500e+09	5.009323118e-02	-4.020879373e-01	2.923035328e-02	3.859459988e-04
1.036131400e+09	4.913804109e-02	-4.018388216e-01	2.841465542e-02	5.352042566e-04
1.036132300e+09	4.938134564e-02	-4.026552628e-01	2.922092910e-02	9.944681561e-04
1.036133200e+09	4.950145958e-02	-4.025966567e-01	2.890166364e-02	7.752155391e-04
1.036134100e+09	4.951777080e-02	-4.023986165e-01	2.929119312e-02	2.115977943e-04
1.036135000e+09	4.784481189e-02	-4.017726108e-01	2.866972617e-02	4.050972967e-04
1.036135900e+09	4.876023740e-02	-4.023953380e-01	2.882574541e-02	5.910138756e-04
1.036136800e+09	4.900320942e-02	-4.023209501e-01	2.892081551e-02	3.570867473e-04
1.036137700e+09	4.790217255e-02	-4.028467550e-01	2.889052911e-02	1.445430208e-04
1.036138600e+09	4.912000061e-02	-4.013903558e-01	2.874264172e-02	5.191201343e-04
1.036139500e+09	4.912080495e-02	-4.015460738e-01	2.857260811e-02	7.275212313e-04
1.036140400e+09	4.828876909e-02	-4.028832995e-01	2.893720930e-02	5.060824264e-04
1.036141300e+09	4.833117107e-02	-4.023732692e-01	2.867264008e-02	4.517746434e-04
1.036142200e+09	4.838357446e-02	-4.014524736e-01	2.883147852e-02	4.195909227e-04
1.036143100e+09	4.812676695e-02	-4.016333958e-01	2.888516274e-02	2.590736941e-04
1.036144000e+09	4.842414403e-02	-4.018417640e-01	2.880116703e-02	6.572389227e-04
1.036144900e+09	4.878040870e-02	-4.008468045e-01	2.833392764e-02	4.797142749e-04
1.036145800e+09	4.632305603e-02	-4.012235977e-01	2.902714153e-02	5.731235651e-04
1.036146700e+09	4.607436010e-02	-4.034452968e-01	2.947623765e-02	5.461400532e-04
1.036147600e+09	4.766583930e-02	-4.017249598e-01	2.857929586e-02	-7.977682700e-06
1.036148500e+09	4.776670041e-02	-4.016036875e-01	2.860616860e-02	8.411567190e-04
1.036149400e+09	4.753972724e-02	-4.023809123e-01	2.877786579e-02	5.049826475e-04
1.036150300e+09	4.689923112e-02	-4.038170030e-01	2.851842462e-02	6.382705064e-04
1.036151200e+09	4.696523621e-02	-4.016838607e-01	2.939329569e-02	5.234002702e-04
1.036152100e+09	4.645089781e-02	-4.032213867e-01	2.923840199e-02	7.432392460e-04
1.036153000e+09	4.633874853e-02	-4.015883086e-01	2.871550717e-02	7.982618709e-04
1.036153900e+09	4.676703680e-02	-4.023151873e-01	2.915786246e-02	8.005654358e-04
1.036154800e+09	4.739533113e-02	-4.021072418e-01	2.923843586e-02	6.093861014e-04
1.036155700e+09	4.715856687e-02	-4.017411275e-01	2.886021074e-02	5.602475440e-04
1.036156600e+09	4.615506701e-02	-4.025480666e-01	2.897756359e-02	2.268879849e-05
1.036157500e+09	4.607359567e-02	-4.021591455e-01	2.909105526e-02	3.558907508e-04
1.036158400e+09	4.615690061e-02	-4.029209310e-01	2.896475789e-02	2.504263049e-04
1.036159300e+09	4.617635843e-02	-4.017851576e-01	2.876733004e-02	1.016045638e-03
1.036160200e+09	4.671880130e-02	-4.017981381e-01	2.924060512e-02	4.210554569e-04
1.036161100e+09	4.681631432e-02	-4.038855309e-01	2.891662787e-02	9.335429315e-04
1.036162000e+09	4.540778351e-02	-4.014669684e-01	2.856724755e-02	6.550090791e-04
1.036162900e+09	4.560061518e-02	-4.015821517e-01	2.898892785e-02	8.521456924e-04
1.036163800e+09	4.527544373e-02	-4.013935825e-01	2.865689455e-02	4.240645055e-04
1.036164700e+09	4.564669294e-02	-4.026243759e-01	2.924072227e-02	1.686040397e-03
1.036165600e+09	4.498953158e-02	-4.016065018e-01	2.895406486e-02	5.059671830e-04
1.036166500e+09	4.540625703e-02	-4.026537299e-01	2.848226712e-02	1.176739260e-03
1.036167400e+09	4.533558979e-02	-4.036924378e-01	2.881722186e-02	3.093190371e-04
1.036168300e+09	4.414479590e-02	-4.022039773e-01	2.880775809e-02	5.087275345e-04
1.036169200e+09	4.507107752e-02	-4.020254704e-01	2.894057140e-02	7.194457192e-04
1.036170100e+09	4.442621814e-02	-4.016006110e-01	2.856351314e-02	6.375929991e-04
1.036171000e+09	4.544687628e-02	-4.030542757e-01	2.930724657e-02	7.974004556e-04
1.036171900e+09	4.428826497e-02	-4.039110388e-01	2.888986595e-02	1.119431726e-03
1.036172800e+09	4.514949143e-02	-4.017170778e-01	2.882231336e-02	7.171452531e-04
1.036173700e+09	4.495155786e-02	-4.020726592e-01	2.962666633e-02	7.573535179e-04
1.036174600e+09	4.440277473e-02	-4.025138705e-01	2.873791305e-02	5.283540847e-04
1.036175500e+09	4.387087824e-02	-4.025143046e-01	2.878496796e-02	5.059565556e-04
1.036176400e+09	4.419192952e-02	-4.036915330e-01	2.891589408e-02	5.951951080e-04
1.036177300e+09	4.410354365e-02	-4.036111859e-01	2.918460987e-02	6.549670847e-04
1.036178200e+09	4.493393043e-02	-4.026637183e-01	2.847984073e-02	4.058075594e-04
1.036179100e+09	4.492317358e-02	-4.015601525e-01	2.921674421e-02	6.103252905e-04
1.036180000e+09	4.373910172e-02	-4.014907269e-01	2.849270774e-02	7.881546836e-04
1.036180900e+09	4.220019628e-02	-4.026125555e-01	2.901284549e-02	9.298319717e-04
1.036181800e+09	4.351673579e-02	-4.019550762e-01	2.913752150e-02	6.542218470e-04
1.036182700e+09	4.399743967e-02	-4.033244784e-01	2.875998752e-02	7.230306028e-04
1.036183600e+09	4.408805991e-02	-4.029876967e-01	2.949658305e-02	3.919322319e-04
1.036184500e+09	4.208035773e-02	-4.015787967e-01	2.908722735e-02	1.078621117e-03
1.036185400e+09	4.250447005e-02	-4.032403025e-01	2.865735902e-02	8.328698024e-04
1.036186300e+09	4.161137647e-02	-4.023407085e-01	2.863679457e-02	4.608140591e-05
1.036187200e+09	4.258347142e-02	-4.029504611e-01	2.897228085e-02	5.961048658e-04
1.036188100e+09	4.315497184e-02	-4.030269632e-01	2.894652446e-02	6.976297168e-04
1.036189000e+09	4.232012455e-02	-4.035807309e-01	2.862335574e-02	1.076690911e-03
1.036189900e+09	4.183949555e-02	-4.028763326e-01	2.876856247e-02	1.054075775e-03
1.036190800e+09	4.287897253e-02	-4.027683513e-01	2.869499663e-02	6.005494091e-04
1.036191700e+09	4.245279559e-02	-4.028995098e-01	2.911511922e-02	2.438511604e-04
1.036192600e+09	4.293328484e-02	-4.021024195e-01	2.896703213e-02	4.395765337e-04
1.036193500e+09	4.354109004e-02	-4.021440322e-01	2.881806017e-02	9.026211259e-04
1.036194400e+09	4.268979977e-02	-4.034291214e-01	2.875905274e-02	2.690173359e-04
1.036195300e+09	4.329343384e-02	-4.027304041e-01	2.887135039e-02	1.099746862e-03
1.036196200e+09	4.182771659e-02	-4.020448610e-01	2.895754363e-02	4.810792191e-04
1.036197100e+09	4.139593649e-02	-4.031534692e-01	2.909903550e-02	7.774640292e-04
1.036198000e+09	4.133274554e-02	-4.034875459e-01	2.915999992e-02	3.819860681e-04
1.036198900e+09	4.063855591e-02	-4.032310749e-01	2.972011843e-02	7.351016164e-04
1.036199800e+09	4.150828839e-02	-4.023102207e-01	2.861156464e-02	8.053312012e-04
1.036200700e+09	4.150844924e-02	-4.028648248e-01	2.855622933e-02	-3.006706980e-05
1.036201600e+09	4.179995143e-02	-4.019317262e-01	2.835208781e-02	8.405263090e-04
1.036202500e+09	4.117494713e-02	-4.035644986e-01	2.924230090e-02	-3.177694330e-04
1.036203400e+09	4.065646375e-02	-4.029183147e-01	2.889246063e-02	3.265866101e-04
1.036204300e+09	4.098558177e-02	-4.032168317e-01	2.832655785e-02	4.570164797e-04
1.036205200e+09	4.128864082e-02	-4.037571979e-01	2.836124118e-02	4.260021998e-04
1.036206100e+09	4.130930463e-02	-4.028766363e-01	2.915934651e-02	3.989487135e-04
1.036207000e+09	4.186218470e-02	-4.030574015e-01	2.871743904e-02	4.450598592e-04
1.036207900e+09	4.184548089e-02	-4.040564558e-01	2.928042079e-02	-2.012699636e-06
1.036208800e+09	3.997461574e-02	-4.028720571e-01	2.837321165e-02	3.817676301e-04
1.036209700e+09	4.118348966e-02	-4.039516079e-01	2.893061883e-02	2.011805020e-04
1.036210600e+09	4.178664497e-02	-4.045000253e-01	2.855044479e-02	4.432396407e-04
1.036211500e+09	3.972953725e-02	-4.039295103e-01	2.884092679e-02	1.091509646e-03
1.036212400e+09	3.995791193e-02	-4.036572619e-01	2.872601325e-02	3.517968852e-04
1.036213300e+09	3.933559838e-02	-4.041759922e-01	2.934124836e-02	7.600048052e-04
1.036214200e+09	3.921417419e-02	-4.034519784e-01	2.869061758e-02	-8.568934460e-06
1.036215100e+09	4.049474035e-02	-4.030525143e-01	2.885464537e-02	2.659564711e-04
1.036216000e+09	4.059897822e-02	-4.024739582e-01	2.924255510e-02	6.334305387e-04
1.036216900e+09	3.944324292e-02	-4.032256487e-01	2.864550247e-02	2.168680608e-04
1.036217800e+09	3.919508092e-02	-4.027470855e-01	2.823260698e-02	7.128623612e-04
1.036218700e+09	4.012456958e-02	-4.026040658e-01	2.883787832e-02	6.877315394e-04
1.036219600e+09	3.968057765e-02	-4.027632179e-01	2.947252047e-02	1.310908531e-03
